
T427C 008:345 SEGGER J-Link V4.28c Log File (0000ms, 7072ms total)
T427C 008:345 DLL Compiled: Jul  1 2011 14:23:12 (0000ms, 7072ms total)
T427C 008:345 Logging started @ 2022-06-03 20:04 (0000ms, 7072ms total)
T427C 008:345 JLINK_SetWarnOutHandler(...) (0000ms, 7072ms total)
T427C 008:345 JLINK_OpenEx(...)
Firmware: J-Link ARM V8 compiled Jul  1 2011 12:02:49
Hardware: V8.00
Feature(s): RDI,FlashDL,FlashBP,JFlash,GDB  returns O.K. (0152ms, 7072ms total)
T427C 008:497 JLINK_GetEmuCaps()  returns 0xB9FF7BBF (0000ms, 7224ms total)
T427C 008:497 JLINK_TIF_GetAvailable(...) (0001ms, 7224ms total)
T427C 008:498 JLINK_SetErrorOutHandler(...) (0000ms, 7225ms total)
T427C 008:499 JLINK_ExecCommand("ProjectFile = "C:\Users\liangyuezhe\Documents\GitHub\HAL_sensor_test\MDK-ARM\JLinkSettings.ini"", ...)  returns 0x00 (0003ms, 7225ms total)
T427C 008:503 JLINK_ExecCommand("Device = STM32F103RC", ...)
                JLINK_ExecCommand("map ram 0x20000000 - 0x2000BFFF", ...)  returns 0x00 (0000ms, 0000ms total)
                JLINK_AddMirrorAreaEx(Addr = 0x00000000, Size = 0x00000000) (0000ms, 0000ms total)
                returns 0x00 (0001ms, 7228ms total)
T427C 008:504 JLINK_ExecCommand("DisableConnectionTimeout", ...)  returns 0x00 (0000ms, 7229ms total)
T427C 008:504 JLINK_GetHardwareVersion()  returns 0x13880 (0000ms, 7229ms total)
T427C 008:504 JLINK_GetDLLVersion()  returns 42803 (0000ms, 7229ms total)
T427C 008:504 JLINK_GetFirmwareString(...) (0000ms, 7229ms total)
T427C 008:507 JLINK_GetDLLVersion()  returns 42803 (0000ms, 7229ms total)
T427C 008:507 JLINK_GetCompileDateTime() (0000ms, 7229ms total)
T427C 008:508 JLINK_GetFirmwareString(...) (0000ms, 7229ms total)
T427C 008:509 JLINK_GetHardwareVersion()  returns 0x13880 (0000ms, 7229ms total)
T427C 008:511 JLINK_TIF_Select(JLINKARM_TIF_SWD)  returns 0x00 (0002ms, 7229ms total)
T427C 008:513 JLINK_SetSpeed(5000) (0000ms, 7231ms total)
T427C 008:513 JLINK_GetId() >0x108 TIF>Found SWD-DP with ID 0x1BA01477 >0x33 TIF> >0x33 TIF> >0x35 TIF> >0x33 TIF> >0x33 TIF> >0x35 TIF> >0x33 TIF> >0x33 TIF> >0x35 TIF> >0x33 TIF> >0x33 TIF> >0x35 TIF> >0x33 TIF> >0x33 TIF> >0x35 TIF> >0x35 TIF> >0x35 TIF> >0x35 TIF> >0x33 TIF> >0x33 TIF> >0x33 TIF> >0x35 TIF> >0x35 TIF> >0x35 TIF> >0x35 TIF> >0x33 TIF> >0x33 TIF> >0x35 TIF> >0x35 TIF> >0x35 TIF> >0x35 TIF> >0x33 TIF> >0x33 TIF> >0x33 TIF> >0x35 TIF> >0x35 TIF> >0x35 TIF> >0x35 TIF> >0x33 TIF>
 >0x33 TIF>TPIU fitted. >0x35 TIF> >0x35 TIF> >0x35 TIF> >0x33 TIF> >0x33 TIF>ETM fitted. >0x35 TIF> >0x35 TIF> >0x35 TIF> >0x33 TIF> >0x33 TIF> >0x35 TIF> >0x35 TIF> >0x35 TIF> >0x33 TIF> >0x33 TIF>  FPUnit: 6 code (BP) slots and 2 literal slots >0x35 TIF> >0x35 TIF> >0x35 TIF> >0x33 TIF> >0x33 TIF> >0x35 TIF> >0x35 TIF> >0x35 TIF> >0x33 TIF> >0x33 TIF> >0x35 TIF> >0x35 TIF> >0x35 TIF> >0x33 TIF> >0x33 TIF>Found Cortex-M3 r1p1, Little endian. >0x33 TIF>  returns 0x1BA01477 (0050ms, 7231ms total)
T427C 008:563 JLINK_GetDLLVersion()  returns 42803 (0000ms, 7281ms total)
T427C 008:563 JLINK_CORE_GetFound()  returns 0x30000FF (0000ms, 7281ms total)
T427C 008:565 JLINK_GetDebugInfo(0x100) -- Value=0xE00FF003  returns 0x00 (0000ms, 7281ms total)
T427C 008:565 JLINK_GetDebugInfo(0x101)  returns 0xFFFFFFFF (0000ms, 7281ms total)
T427C 008:565 JLINK_ReadMemEx(0xE0041FF0, 0x0010 Bytes, ..., AccessWidth = 33554436) -- CPU is running -- CPU_ReadMem(16 bytes @ 0xE0041FF0) -- Data:  0D 00 00 00 90 00 00 00 05 00 00 00 B1 00 00 00  returns 0x10 (0001ms, 7281ms total)
T427C 008:566 JLINK_ReadMemEx(0xE0041FD0, 0x0020 Bytes, ..., AccessWidth = 33554436) -- CPU is running -- CPU_ReadMem(32 bytes @ 0xE0041FD0) -- Data:  04 00 00 00 00 00 00 00 00 00 00 00 00 00 00 00 ...  returns 0x20 (0001ms, 7282ms total)
T427C 008:567 JLINK_GetDebugInfo(0x102)  returns 0xFFFFFFFF (0000ms, 7283ms total)
T427C 008:567 JLINK_GetDebugInfo(0x103)  returns 0xFFFFFFFF (0000ms, 7283ms total)
T427C 008:567 JLINK_ReadMemEx(0xE0040FF0, 0x0010 Bytes, ..., AccessWidth = 33554436) -- CPU is running -- CPU_ReadMem(16 bytes @ 0xE0040FF0) -- Data:  00 00 00 00 00 00 00 00 00 00 00 00 00 00 00 00  returns 0x10 (0001ms, 7283ms total)
T427C 008:568 JLINK_GetDebugInfo(0x104)  returns 0xFFFFFFFF (0000ms, 7284ms total)
T427C 008:568 JLINK_GetDebugInfo(0x105)  returns 0xFFFFFFFF (0000ms, 7284ms total)
T427C 008:568 JLINK_GetDebugInfo(0x106)  returns 0xFFFFFFFF (0000ms, 7284ms total)
T427C 008:568 JLINK_GetDebugInfo(0x107)  returns 0xFFFFFFFF (0000ms, 7284ms total)
T427C 008:568 JLINK_GetDebugInfo(0x10C)  returns 0xFFFFFFFF (0000ms, 7284ms total)
T427C 008:568 JLINK_GetDebugInfo(0x01)  returns 0xFFFFFFFF (0000ms, 7284ms total)
T427C 008:568 JLINK_GetDeviceFamily()  returns 3 (0000ms, 7284ms total)
T427C 008:568 JLINK_ReadMemU32(0xE000ED00, 0x0001 Items, ...) -- CPU is running -- CPU_ReadMem(4 bytes @ 0xE000ED00) -- Data:  31 C2 1F 41  returns 0x01 (0000ms, 7284ms total)
T427C 008:568 JLINK_GetDebugInfo(0x10F)  returns 0xFFFFFFFF (0000ms, 7284ms total)
T427C 008:568 JLINK_SetResetType(JLINKARM_RESET_TYPE_NORMAL)  returns JLINKARM_RESET_TYPE_NORMAL (0000ms, 7284ms total)
T427C 008:568 JLINK_Reset() >0x108 TIF>Found SWD-DP with ID 0x1BA01477 >0x33 TIF> >0x33 TIF> >0x35 TIF> >0x33 TIF> >0x35 TIF> >0x33 TIF> >0x33 TIF> >0x35 TIF> >0x33 TIF> >0x33 TIF> >0x35 TIF> >0x33 TIF> >0x33 TIF> >0x35 TIF> >0x33 TIF> >0x33 TIF> >0x35 TIF> >0x35 TIF> >0x35 TIF> >0x35 TIF> >0x33 TIF> >0x33 TIF> >0x33 TIF> >0x35 TIF> >0x35 TIF> >0x35 TIF> >0x35 TIF> >0x33 TIF> >0x33 TIF> >0x35 TIF> >0x35 TIF> >0x35 TIF> >0x33 TIF> >0x33 TIF>TPIU fitted. >0x35 TIF> >0x35 TIF> >0x35 TIF> >0x33 TIF>
 >0x33 TIF>ETM fitted. >0x35 TIF> >0x35 TIF> >0x35 TIF> >0x33 TIF> >0x33 TIF> >0x35 TIF> >0x35 TIF> >0x35 TIF> >0x33 TIF> >0x33 TIF>  FPUnit: 6 code (BP) slots and 2 literal slots >0x35 TIF> >0x35 TIF> >0x35 TIF> >0x33 TIF> >0x33 TIF> >0x35 TIF> >0x35 TIF> >0x35 TIF> >0x33 TIF> >0x33 TIF> >0x35 TIF> >0x35 TIF> >0x35 TIF> >0x33 TIF> >0x33 TIF>Found Cortex-M3 r1p1, Little endian. (0059ms, 7284ms total)
T427C 008:627 JLINK_Halt()  returns 0x00 (0000ms, 7343ms total)
T427C 008:627 JLINK_ReadMemU32(0xE000EDF0, 0x0001 Items, ...) -- CPU_ReadMem(4 bytes @ 0xE000EDF0) -- Data:  03 00 03 00  returns 0x01 (0001ms, 7343ms total)
T427C 008:628 JLINK_WriteU32(0xE000EDF0, 0xA05F0003) -- CPU_WriteMem(4 bytes @ 0xE000EDF0)  returns 0x00 (0000ms, 7344ms total)
T427C 008:628 JLINK_WriteU32(0xE000EDFC, 0x01000000) -- CPU_WriteMem(4 bytes @ 0xE000EDFC)  returns 0x00 (0001ms, 7344ms total)
T427C 008:636 JLINK_GetHWStatus(...)  returns 0x00 (0001ms, 7345ms total)
T427C 008:642 JLINK_GetNumBPUnits(Type = 0xFFFFFF00)  returns 0x06 (0000ms, 7346ms total)
T427C 008:642 JLINK_GetNumBPUnits(Type = 0xF0)  returns 0x2000 (0000ms, 7346ms total)
T427C 008:642 JLINK_GetNumWPUnits()  returns 0x04 (0000ms, 7346ms total)
T427C 008:648 JLINK_GetSpeed()  returns 0xFA0 (0000ms, 7346ms total)
T427C 008:652 JLINK_ReadMemU32(0xE000E004, 0x0001 Items, ...) -- CPU_ReadMem(4 bytes @ 0xE000E004) -- Data:  01 00 00 00  returns 0x01 (0000ms, 7346ms total)
T427C 008:652 JLINK_ReadMemU32(0xE000E004, 0x0001 Items, ...) -- CPU_ReadMem(4 bytes @ 0xE000E004) -- Data:  01 00 00 00  returns 0x01 (0001ms, 7346ms total)
T427C 008:653 JLINK_WriteMemEx(0xE0001000, 0x001C Bytes, ..., AccessWidth = 33554436) -- Data:  01 00 00 00 00 00 00 00 00 00 00 00 00 00 00 00 ... -- CPU_WriteMem(28 bytes @ 0xE0001000)  returns 0x1C (0001ms, 7347ms total)
T427C 008:654 JLINK_Halt()  returns 0x00 (0000ms, 7348ms total)
T427C 008:654 JLINK_IsHalted()  returns TRUE (0000ms, 7348ms total)
T427C 008:659 JLINK_WriteMem(0x20000000, 0x0164 Bytes, ...) -- Data:  00 BE 0A E0 0D 78 2D 06 68 40 08 24 40 00 00 D3 ... -- CPU_WriteMem(356 bytes @ 0x20000000)  returns 0x164 (0003ms, 7348ms total)
T427C 008:662 JLINK_WriteReg(R0, 0x08000000)  returns 0x00 (0000ms, 7351ms total)
T427C 008:662 JLINK_WriteReg(R1, 0x044AA200)  returns 0x00 (0000ms, 7351ms total)
T427C 008:662 JLINK_WriteReg(R2, 0x00000001)  returns 0x00 (0000ms, 7351ms total)
T427C 008:662 JLINK_WriteReg(R3, 0x00000000)  returns 0x00 (0000ms, 7351ms total)
T427C 008:662 JLINK_WriteReg(R4, 0x00000000)  returns 0x00 (0000ms, 7351ms total)
T427C 008:662 JLINK_WriteReg(R5, 0x00000000)  returns 0x00 (0000ms, 7351ms total)
T427C 008:662 JLINK_WriteReg(R6, 0x00000000)  returns 0x00 (0000ms, 7351ms total)
T427C 008:662 JLINK_WriteReg(R7, 0x00000000)  returns 0x00 (0000ms, 7351ms total)
T427C 008:662 JLINK_WriteReg(R8, 0x00000000)  returns 0x00 (0000ms, 7351ms total)
T427C 008:662 JLINK_WriteReg(R9, 0x20000160)  returns 0x00 (0000ms, 7351ms total)
T427C 008:662 JLINK_WriteReg(R10, 0x00000000)  returns 0x00 (0000ms, 7351ms total)
T427C 008:662 JLINK_WriteReg(R11, 0x00000000)  returns 0x00 (0000ms, 7351ms total)
T427C 008:662 JLINK_WriteReg(R12, 0x00000000)  returns 0x00 (0000ms, 7351ms total)
T427C 008:662 JLINK_WriteReg(R13, 0x20001000)  returns 0x00 (0000ms, 7351ms total)
T427C 008:662 JLINK_WriteReg(R14, 0x20000001)  returns 0x00 (0000ms, 7351ms total)
T427C 008:662 JLINK_WriteReg(R15, 0x20000038)  returns 0x00 (0000ms, 7351ms total)
T427C 008:662 JLINK_WriteReg(XPSR, 0x01000000)  returns 0x00 (0000ms, 7351ms total)
T427C 008:662 JLINK_WriteReg(MSP, 0x20001000)  returns 0x00 (0000ms, 7351ms total)
T427C 008:662 JLINK_WriteReg(PSP, 0x20001000)  returns 0x00 (0000ms, 7351ms total)
T427C 008:662 JLINK_WriteReg(CFBP, 0x00000000)  returns 0x00 (0000ms, 7351ms total)
T427C 008:662 JLINK_SetBPEx(Addr = 0x20000000, Type = 0xFFFFFFF2) -- CPU_ReadMem(2 bytes @ 0x20000000)  returns 0x00000001 (0001ms, 7351ms total)
T427C 008:663 JLINK_Go() -- CPU_WriteMem(2 bytes @ 0x20000000) -- CPU_WriteMem(4 bytes @ 0xE0002008) -- CPU_WriteMem(4 bytes @ 0xE000200C) -- CPU_WriteMem(4 bytes @ 0xE0002010) -- CPU_WriteMem(4 bytes @ 0xE0002014) -- CPU_WriteMem(4 bytes @ 0xE0002018) -- CPU_WriteMem(4 bytes @ 0xE000201C) (0006ms, 7352ms total)
T427C 008:669 JLINK_IsHalted() -- CPU_ReadMem(2 bytes @ 0x20000000)  returns TRUE (0004ms, 7358ms total)
T427C 008:673 JLINK_ReadReg(R15)  returns 0x20000000 (0000ms, 7358ms total)
T427C 008:673 JLINK_ClrBPEx(BPHandle = 0x00000001)  returns 0x00 (0000ms, 7358ms total)
T427C 008:673 JLINK_ReadReg(R0)  returns 0x00000000 (0000ms, 7358ms total)
T427C 008:673 JLINK_WriteReg(R0, 0x08000000)  returns 0x00 (0000ms, 7358ms total)
T427C 008:673 JLINK_WriteReg(R1, 0x00000800)  returns 0x00 (0000ms, 7358ms total)
T427C 008:673 JLINK_WriteReg(R2, 0x000000FF)  returns 0x00 (0000ms, 7358ms total)
T427C 008:673 JLINK_WriteReg(R3, 0x00000000)  returns 0x00 (0000ms, 7358ms total)
T427C 008:673 JLINK_WriteReg(R4, 0x00000000)  returns 0x00 (0000ms, 7358ms total)
T427C 008:673 JLINK_WriteReg(R5, 0x00000000)  returns 0x00 (0000ms, 7358ms total)
T427C 008:673 JLINK_WriteReg(R6, 0x00000000)  returns 0x00 (0000ms, 7358ms total)
T427C 008:673 JLINK_WriteReg(R7, 0x00000000)  returns 0x00 (0000ms, 7358ms total)
T427C 008:673 JLINK_WriteReg(R8, 0x00000000)  returns 0x00 (0000ms, 7358ms total)
T427C 008:673 JLINK_WriteReg(R9, 0x20000160)  returns 0x00 (0000ms, 7358ms total)
T427C 008:673 JLINK_WriteReg(R10, 0x00000000)  returns 0x00 (0000ms, 7358ms total)
T427C 008:673 JLINK_WriteReg(R11, 0x00000000)  returns 0x00 (0000ms, 7358ms total)
T427C 008:673 JLINK_WriteReg(R12, 0x00000000)  returns 0x00 (0001ms, 7358ms total)
T427C 008:674 JLINK_WriteReg(R13, 0x20001000)  returns 0x00 (0000ms, 7359ms total)
T427C 008:674 JLINK_WriteReg(R14, 0x20000001)  returns 0x00 (0000ms, 7359ms total)
T427C 008:674 JLINK_WriteReg(R15, 0x20000020)  returns 0x00 (0000ms, 7359ms total)
T427C 008:674 JLINK_WriteReg(XPSR, 0x01000000)  returns 0x00 (0000ms, 7359ms total)
T427C 008:674 JLINK_WriteReg(MSP, 0x20001000)  returns 0x00 (0000ms, 7359ms total)
T427C 008:674 JLINK_WriteReg(PSP, 0x20001000)  returns 0x00 (0000ms, 7359ms total)
T427C 008:674 JLINK_WriteReg(CFBP, 0x00000000)  returns 0x00 (0000ms, 7359ms total)
T427C 008:674 JLINK_SetBPEx(Addr = 0x20000000, Type = 0xFFFFFFF2)  returns 0x00000002 (0000ms, 7359ms total)
T427C 008:674 JLINK_Go() -- CPU_WriteMem(4 bytes @ 0xE0002008) -- CPU_WriteMem(4 bytes @ 0xE000200C) -- CPU_WriteMem(4 bytes @ 0xE0002010) -- CPU_WriteMem(4 bytes @ 0xE0002014) -- CPU_WriteMem(4 bytes @ 0xE0002018) -- CPU_WriteMem(4 bytes @ 0xE000201C) (0005ms, 7359ms total)
T427C 008:679 JLINK_IsHalted() -- CPU_ReadMem(2 bytes @ 0x20000000)  returns TRUE (0003ms, 7364ms total)
T427C 008:682 JLINK_ReadReg(R15)  returns 0x20000000 (0000ms, 7364ms total)
T427C 008:682 JLINK_ClrBPEx(BPHandle = 0x00000002)  returns 0x00 (0000ms, 7364ms total)
T427C 008:682 JLINK_ReadReg(R0)  returns 0x00000001 (0000ms, 7364ms total)
T427C 008:682 JLINK_WriteReg(R0, 0x08000000)  returns 0x00 (0001ms, 7364ms total)
T427C 008:683 JLINK_WriteReg(R1, 0x00000800)  returns 0x00 (0000ms, 7365ms total)
T427C 008:683 JLINK_WriteReg(R2, 0x000000FF)  returns 0x00 (0000ms, 7365ms total)
T427C 008:683 JLINK_WriteReg(R3, 0x00000000)  returns 0x00 (0000ms, 7365ms total)
T427C 008:683 JLINK_WriteReg(R4, 0x00000000)  returns 0x00 (0000ms, 7365ms total)
T427C 008:683 JLINK_WriteReg(R5, 0x00000000)  returns 0x00 (0000ms, 7365ms total)
T427C 008:683 JLINK_WriteReg(R6, 0x00000000)  returns 0x00 (0000ms, 7365ms total)
T427C 008:683 JLINK_WriteReg(R7, 0x00000000)  returns 0x00 (0000ms, 7365ms total)
T427C 008:683 JLINK_WriteReg(R8, 0x00000000)  returns 0x00 (0000ms, 7365ms total)
T427C 008:683 JLINK_WriteReg(R9, 0x20000160)  returns 0x00 (0000ms, 7365ms total)
T427C 008:683 JLINK_WriteReg(R10, 0x00000000)  returns 0x00 (0000ms, 7365ms total)
T427C 008:683 JLINK_WriteReg(R11, 0x00000000)  returns 0x00 (0000ms, 7365ms total)
T427C 008:683 JLINK_WriteReg(R12, 0x00000000)  returns 0x00 (0000ms, 7365ms total)
T427C 008:683 JLINK_WriteReg(R13, 0x20001000)  returns 0x00 (0000ms, 7365ms total)
T427C 008:683 JLINK_WriteReg(R14, 0x20000001)  returns 0x00 (0000ms, 7365ms total)
T427C 008:683 JLINK_WriteReg(R15, 0x200000B6)  returns 0x00 (0000ms, 7365ms total)
T427C 008:683 JLINK_WriteReg(XPSR, 0x01000000)  returns 0x00 (0000ms, 7365ms total)
T427C 008:683 JLINK_WriteReg(MSP, 0x20001000)  returns 0x00 (0000ms, 7365ms total)
T427C 008:683 JLINK_WriteReg(PSP, 0x20001000)  returns 0x00 (0000ms, 7365ms total)
T427C 008:683 JLINK_WriteReg(CFBP, 0x00000000)  returns 0x00 (0000ms, 7365ms total)
T427C 008:683 JLINK_SetBPEx(Addr = 0x20000000, Type = 0xFFFFFFF2)  returns 0x00000003 (0000ms, 7365ms total)
T427C 008:683 JLINK_Go() -- CPU_WriteMem(4 bytes @ 0xE0002008) -- CPU_WriteMem(4 bytes @ 0xE000200C) -- CPU_WriteMem(4 bytes @ 0xE0002010) -- CPU_WriteMem(4 bytes @ 0xE0002014) -- CPU_WriteMem(4 bytes @ 0xE0002018) -- CPU_WriteMem(4 bytes @ 0xE000201C) (0005ms, 7365ms total)
T427C 008:688 JLINK_IsHalted()  returns FALSE (0001ms, 7370ms total)
T427C 008:761 JLINK_IsHalted() -- CPU_ReadMem(2 bytes @ 0x20000000)  returns TRUE (0004ms, 7370ms total)
T427C 008:765 JLINK_ReadReg(R15)  returns 0x20000000 (0000ms, 7370ms total)
T427C 008:765 JLINK_ClrBPEx(BPHandle = 0x00000003)  returns 0x00 (0000ms, 7370ms total)
T427C 008:765 JLINK_ReadReg(R0)  returns 0x00000000 (0000ms, 7370ms total)
T427C 008:765 JLINK_WriteReg(R0, 0x08000800)  returns 0x00 (0000ms, 7370ms total)
T427C 008:765 JLINK_WriteReg(R1, 0x00000800)  returns 0x00 (0000ms, 7370ms total)
T427C 008:765 JLINK_WriteReg(R2, 0x000000FF)  returns 0x00 (0000ms, 7370ms total)
T427C 008:765 JLINK_WriteReg(R3, 0x00000000)  returns 0x00 (0000ms, 7370ms total)
T427C 008:765 JLINK_WriteReg(R4, 0x00000000)  returns 0x00 (0000ms, 7370ms total)
T427C 008:765 JLINK_WriteReg(R5, 0x00000000)  returns 0x00 (0000ms, 7370ms total)
T427C 008:765 JLINK_WriteReg(R6, 0x00000000)  returns 0x00 (0000ms, 7370ms total)
T427C 008:765 JLINK_WriteReg(R7, 0x00000000)  returns 0x00 (0000ms, 7370ms total)
T427C 008:765 JLINK_WriteReg(R8, 0x00000000)  returns 0x00 (0000ms, 7370ms total)
T427C 008:765 JLINK_WriteReg(R9, 0x20000160)  returns 0x00 (0000ms, 7370ms total)
T427C 008:765 JLINK_WriteReg(R10, 0x00000000)  returns 0x00 (0000ms, 7370ms total)
T427C 008:765 JLINK_WriteReg(R11, 0x00000000)  returns 0x00 (0000ms, 7370ms total)
T427C 008:765 JLINK_WriteReg(R12, 0x00000000)  returns 0x00 (0000ms, 7370ms total)
T427C 008:765 JLINK_WriteReg(R13, 0x20001000)  returns 0x00 (0000ms, 7370ms total)
T427C 008:765 JLINK_WriteReg(R14, 0x20000001)  returns 0x00 (0000ms, 7370ms total)
T427C 008:765 JLINK_WriteReg(R15, 0x20000020)  returns 0x00 (0000ms, 7370ms total)
T427C 008:765 JLINK_WriteReg(XPSR, 0x01000000)  returns 0x00 (0000ms, 7370ms total)
T427C 008:765 JLINK_WriteReg(MSP, 0x20001000)  returns 0x00 (0000ms, 7370ms total)
T427C 008:765 JLINK_WriteReg(PSP, 0x20001000)  returns 0x00 (0000ms, 7370ms total)
T427C 008:765 JLINK_WriteReg(CFBP, 0x00000000)  returns 0x00 (0000ms, 7370ms total)
T427C 008:765 JLINK_SetBPEx(Addr = 0x20000000, Type = 0xFFFFFFF2)  returns 0x00000004 (0000ms, 7370ms total)
T427C 008:765 JLINK_Go() -- CPU_WriteMem(4 bytes @ 0xE0002008) -- CPU_WriteMem(4 bytes @ 0xE000200C) -- CPU_WriteMem(4 bytes @ 0xE0002010) -- CPU_WriteMem(4 bytes @ 0xE0002014) -- CPU_WriteMem(4 bytes @ 0xE0002018) -- CPU_WriteMem(4 bytes @ 0xE000201C) (0005ms, 7370ms total)
T427C 008:770 JLINK_IsHalted() -- CPU_ReadMem(2 bytes @ 0x20000000)  returns TRUE (0004ms, 7375ms total)
T427C 008:774 JLINK_ReadReg(R15)  returns 0x20000000 (0000ms, 7375ms total)
T427C 008:774 JLINK_ClrBPEx(BPHandle = 0x00000004)  returns 0x00 (0000ms, 7375ms total)
T427C 008:774 JLINK_ReadReg(R0)  returns 0x00000001 (0000ms, 7375ms total)
T427C 008:774 JLINK_WriteReg(R0, 0x08000800)  returns 0x00 (0000ms, 7375ms total)
T427C 008:774 JLINK_WriteReg(R1, 0x00000800)  returns 0x00 (0000ms, 7375ms total)
T427C 008:774 JLINK_WriteReg(R2, 0x000000FF)  returns 0x00 (0000ms, 7375ms total)
T427C 008:774 JLINK_WriteReg(R3, 0x00000000)  returns 0x00 (0000ms, 7375ms total)
T427C 008:774 JLINK_WriteReg(R4, 0x00000000)  returns 0x00 (0000ms, 7375ms total)
T427C 008:774 JLINK_WriteReg(R5, 0x00000000)  returns 0x00 (0000ms, 7375ms total)
T427C 008:774 JLINK_WriteReg(R6, 0x00000000)  returns 0x00 (0000ms, 7375ms total)
T427C 008:774 JLINK_WriteReg(R7, 0x00000000)  returns 0x00 (0000ms, 7375ms total)
T427C 008:774 JLINK_WriteReg(R8, 0x00000000)  returns 0x00 (0000ms, 7375ms total)
T427C 008:774 JLINK_WriteReg(R9, 0x20000160)  returns 0x00 (0000ms, 7375ms total)
T427C 008:774 JLINK_WriteReg(R10, 0x00000000)  returns 0x00 (0000ms, 7375ms total)
T427C 008:774 JLINK_WriteReg(R11, 0x00000000)  returns 0x00 (0000ms, 7375ms total)
T427C 008:774 JLINK_WriteReg(R12, 0x00000000)  returns 0x00 (0000ms, 7375ms total)
T427C 008:774 JLINK_WriteReg(R13, 0x20001000)  returns 0x00 (0000ms, 7375ms total)
T427C 008:774 JLINK_WriteReg(R14, 0x20000001)  returns 0x00 (0000ms, 7375ms total)
T427C 008:774 JLINK_WriteReg(R15, 0x200000B6)  returns 0x00 (0000ms, 7375ms total)
T427C 008:774 JLINK_WriteReg(XPSR, 0x01000000)  returns 0x00 (0000ms, 7375ms total)
T427C 008:774 JLINK_WriteReg(MSP, 0x20001000)  returns 0x00 (0001ms, 7375ms total)
T427C 008:775 JLINK_WriteReg(PSP, 0x20001000)  returns 0x00 (0000ms, 7376ms total)
T427C 008:775 JLINK_WriteReg(CFBP, 0x00000000)  returns 0x00 (0000ms, 7376ms total)
T427C 008:775 JLINK_SetBPEx(Addr = 0x20000000, Type = 0xFFFFFFF2)  returns 0x00000005 (0000ms, 7376ms total)
T427C 008:775 JLINK_Go() -- CPU_WriteMem(4 bytes @ 0xE0002008) -- CPU_WriteMem(4 bytes @ 0xE000200C) -- CPU_WriteMem(4 bytes @ 0xE0002010) -- CPU_WriteMem(4 bytes @ 0xE0002014) -- CPU_WriteMem(4 bytes @ 0xE0002018) -- CPU_WriteMem(4 bytes @ 0xE000201C) (0005ms, 7376ms total)
T427C 008:780 JLINK_IsHalted()  returns FALSE (0000ms, 7381ms total)
T427C 008:790 JLINK_IsHalted()  returns FALSE (0000ms, 7381ms total)
T427C 008:792 JLINK_IsHalted()  returns FALSE (0000ms, 7381ms total)
T427C 008:794 JLINK_IsHalted()  returns FALSE (0000ms, 7381ms total)
T427C 008:796 JLINK_IsHalted()  returns FALSE (0001ms, 7381ms total)
T427C 008:799 JLINK_IsHalted()  returns FALSE (0000ms, 7381ms total)
T427C 008:801 JLINK_IsHalted()  returns FALSE (0000ms, 7381ms total)
T427C 008:803 JLINK_IsHalted() -- CPU_ReadMem(2 bytes @ 0x20000000)  returns TRUE (0004ms, 7381ms total)
T427C 008:807 JLINK_ReadReg(R15)  returns 0x20000000 (0000ms, 7381ms total)
T427C 008:807 JLINK_ClrBPEx(BPHandle = 0x00000005)  returns 0x00 (0000ms, 7381ms total)
T427C 008:807 JLINK_ReadReg(R0)  returns 0x00000000 (0000ms, 7381ms total)
T427C 008:807 JLINK_WriteReg(R0, 0x08001000)  returns 0x00 (0000ms, 7381ms total)
T427C 008:807 JLINK_WriteReg(R1, 0x00000800)  returns 0x00 (0000ms, 7381ms total)
T427C 008:807 JLINK_WriteReg(R2, 0x000000FF)  returns 0x00 (0000ms, 7381ms total)
T427C 008:807 JLINK_WriteReg(R3, 0x00000000)  returns 0x00 (0000ms, 7381ms total)
T427C 008:807 JLINK_WriteReg(R4, 0x00000000)  returns 0x00 (0000ms, 7381ms total)
T427C 008:807 JLINK_WriteReg(R5, 0x00000000)  returns 0x00 (0000ms, 7381ms total)
T427C 008:807 JLINK_WriteReg(R6, 0x00000000)  returns 0x00 (0000ms, 7381ms total)
T427C 008:807 JLINK_WriteReg(R7, 0x00000000)  returns 0x00 (0000ms, 7381ms total)
T427C 008:807 JLINK_WriteReg(R8, 0x00000000)  returns 0x00 (0000ms, 7381ms total)
T427C 008:807 JLINK_WriteReg(R9, 0x20000160)  returns 0x00 (0000ms, 7381ms total)
T427C 008:807 JLINK_WriteReg(R10, 0x00000000)  returns 0x00 (0000ms, 7381ms total)
T427C 008:807 JLINK_WriteReg(R11, 0x00000000)  returns 0x00 (0000ms, 7381ms total)
T427C 008:807 JLINK_WriteReg(R12, 0x00000000)  returns 0x00 (0000ms, 7381ms total)
T427C 008:807 JLINK_WriteReg(R13, 0x20001000)  returns 0x00 (0000ms, 7381ms total)
T427C 008:807 JLINK_WriteReg(R14, 0x20000001)  returns 0x00 (0000ms, 7381ms total)
T427C 008:807 JLINK_WriteReg(R15, 0x20000020)  returns 0x00 (0000ms, 7381ms total)
T427C 008:807 JLINK_WriteReg(XPSR, 0x01000000)  returns 0x00 (0000ms, 7381ms total)
T427C 008:807 JLINK_WriteReg(MSP, 0x20001000)  returns 0x00 (0000ms, 7381ms total)
T427C 008:807 JLINK_WriteReg(PSP, 0x20001000)  returns 0x00 (0000ms, 7381ms total)
T427C 008:807 JLINK_WriteReg(CFBP, 0x00000000)  returns 0x00 (0000ms, 7381ms total)
T427C 008:807 JLINK_SetBPEx(Addr = 0x20000000, Type = 0xFFFFFFF2)  returns 0x00000006 (0000ms, 7381ms total)
T427C 008:807 JLINK_Go() -- CPU_WriteMem(4 bytes @ 0xE0002008) -- CPU_WriteMem(4 bytes @ 0xE000200C) -- CPU_WriteMem(4 bytes @ 0xE0002010) -- CPU_WriteMem(4 bytes @ 0xE0002014) -- CPU_WriteMem(4 bytes @ 0xE0002018) -- CPU_WriteMem(4 bytes @ 0xE000201C) (0005ms, 7381ms total)
T427C 008:812 JLINK_IsHalted() -- CPU_ReadMem(2 bytes @ 0x20000000)  returns TRUE (0005ms, 7386ms total)
T427C 008:817 JLINK_ReadReg(R15)  returns 0x20000000 (0000ms, 7386ms total)
T427C 008:817 JLINK_ClrBPEx(BPHandle = 0x00000006)  returns 0x00 (0000ms, 7386ms total)
T427C 008:817 JLINK_ReadReg(R0)  returns 0x00000001 (0000ms, 7386ms total)
T427C 008:817 JLINK_WriteReg(R0, 0x08001000)  returns 0x00 (0000ms, 7386ms total)
T427C 008:817 JLINK_WriteReg(R1, 0x00000800)  returns 0x00 (0000ms, 7386ms total)
T427C 008:817 JLINK_WriteReg(R2, 0x000000FF)  returns 0x00 (0000ms, 7386ms total)
T427C 008:817 JLINK_WriteReg(R3, 0x00000000)  returns 0x00 (0000ms, 7386ms total)
T427C 008:817 JLINK_WriteReg(R4, 0x00000000)  returns 0x00 (0000ms, 7386ms total)
T427C 008:817 JLINK_WriteReg(R5, 0x00000000)  returns 0x00 (0000ms, 7386ms total)
T427C 008:817 JLINK_WriteReg(R6, 0x00000000)  returns 0x00 (0000ms, 7386ms total)
T427C 008:817 JLINK_WriteReg(R7, 0x00000000)  returns 0x00 (0000ms, 7386ms total)
T427C 008:817 JLINK_WriteReg(R8, 0x00000000)  returns 0x00 (0000ms, 7386ms total)
T427C 008:817 JLINK_WriteReg(R9, 0x20000160)  returns 0x00 (0000ms, 7386ms total)
T427C 008:817 JLINK_WriteReg(R10, 0x00000000)  returns 0x00 (0000ms, 7386ms total)
T427C 008:817 JLINK_WriteReg(R11, 0x00000000)  returns 0x00 (0000ms, 7386ms total)
T427C 008:817 JLINK_WriteReg(R12, 0x00000000)  returns 0x00 (0000ms, 7386ms total)
T427C 008:817 JLINK_WriteReg(R13, 0x20001000)  returns 0x00 (0000ms, 7386ms total)
T427C 008:817 JLINK_WriteReg(R14, 0x20000001)  returns 0x00 (0000ms, 7386ms total)
T427C 008:817 JLINK_WriteReg(R15, 0x200000B6)  returns 0x00 (0000ms, 7386ms total)
T427C 008:817 JLINK_WriteReg(XPSR, 0x01000000)  returns 0x00 (0000ms, 7386ms total)
T427C 008:817 JLINK_WriteReg(MSP, 0x20001000)  returns 0x00 (0000ms, 7386ms total)
T427C 008:817 JLINK_WriteReg(PSP, 0x20001000)  returns 0x00 (0000ms, 7386ms total)
T427C 008:817 JLINK_WriteReg(CFBP, 0x00000000)  returns 0x00 (0000ms, 7386ms total)
T427C 008:817 JLINK_SetBPEx(Addr = 0x20000000, Type = 0xFFFFFFF2)  returns 0x00000007 (0000ms, 7386ms total)
T427C 008:817 JLINK_Go() -- CPU_WriteMem(4 bytes @ 0xE0002008) -- CPU_WriteMem(4 bytes @ 0xE000200C) -- CPU_WriteMem(4 bytes @ 0xE0002010) -- CPU_WriteMem(4 bytes @ 0xE0002014) -- CPU_WriteMem(4 bytes @ 0xE0002018) -- CPU_WriteMem(4 bytes @ 0xE000201C) (0005ms, 7386ms total)
T427C 008:822 JLINK_IsHalted()  returns FALSE (0000ms, 7391ms total)
T427C 008:825 JLINK_IsHalted()  returns FALSE (0001ms, 7391ms total)
T427C 008:828 JLINK_IsHalted()  returns FALSE (0000ms, 7391ms total)
T427C 008:830 JLINK_IsHalted()  returns FALSE (0000ms, 7391ms total)
T427C 008:832 JLINK_IsHalted()  returns FALSE (0000ms, 7391ms total)
T427C 008:834 JLINK_IsHalted()  returns FALSE (0001ms, 7391ms total)
T427C 008:837 JLINK_IsHalted()  returns FALSE (0000ms, 7391ms total)
T427C 008:840 JLINK_IsHalted()  returns FALSE (0000ms, 7391ms total)
T427C 008:842 JLINK_IsHalted()  returns FALSE (0000ms, 7391ms total)
T427C 008:844 JLINK_IsHalted() -- CPU_ReadMem(2 bytes @ 0x20000000)  returns TRUE (0004ms, 7391ms total)
T427C 008:848 JLINK_ReadReg(R15)  returns 0x20000000 (0000ms, 7391ms total)
T427C 008:848 JLINK_ClrBPEx(BPHandle = 0x00000007)  returns 0x00 (0000ms, 7391ms total)
T427C 008:848 JLINK_ReadReg(R0)  returns 0x00000000 (0000ms, 7391ms total)
T427C 008:848 JLINK_WriteReg(R0, 0x08001800)  returns 0x00 (0000ms, 7391ms total)
T427C 008:848 JLINK_WriteReg(R1, 0x00000800)  returns 0x00 (0000ms, 7391ms total)
T427C 008:848 JLINK_WriteReg(R2, 0x000000FF)  returns 0x00 (0000ms, 7391ms total)
T427C 008:848 JLINK_WriteReg(R3, 0x00000000)  returns 0x00 (0000ms, 7391ms total)
T427C 008:848 JLINK_WriteReg(R4, 0x00000000)  returns 0x00 (0000ms, 7391ms total)
T427C 008:848 JLINK_WriteReg(R5, 0x00000000)  returns 0x00 (0000ms, 7391ms total)
T427C 008:848 JLINK_WriteReg(R6, 0x00000000)  returns 0x00 (0000ms, 7391ms total)
T427C 008:848 JLINK_WriteReg(R7, 0x00000000)  returns 0x00 (0000ms, 7391ms total)
T427C 008:848 JLINK_WriteReg(R8, 0x00000000)  returns 0x00 (0000ms, 7391ms total)
T427C 008:848 JLINK_WriteReg(R9, 0x20000160)  returns 0x00 (0000ms, 7391ms total)
T427C 008:848 JLINK_WriteReg(R10, 0x00000000)  returns 0x00 (0000ms, 7391ms total)
T427C 008:848 JLINK_WriteReg(R11, 0x00000000)  returns 0x00 (0000ms, 7391ms total)
T427C 008:848 JLINK_WriteReg(R12, 0x00000000)  returns 0x00 (0000ms, 7391ms total)
T427C 008:848 JLINK_WriteReg(R13, 0x20001000)  returns 0x00 (0000ms, 7391ms total)
T427C 008:848 JLINK_WriteReg(R14, 0x20000001)  returns 0x00 (0000ms, 7391ms total)
T427C 008:848 JLINK_WriteReg(R15, 0x20000020)  returns 0x00 (0000ms, 7391ms total)
T427C 008:848 JLINK_WriteReg(XPSR, 0x01000000)  returns 0x00 (0000ms, 7391ms total)
T427C 008:848 JLINK_WriteReg(MSP, 0x20001000)  returns 0x00 (0000ms, 7391ms total)
T427C 008:848 JLINK_WriteReg(PSP, 0x20001000)  returns 0x00 (0000ms, 7391ms total)
T427C 008:848 JLINK_WriteReg(CFBP, 0x00000000)  returns 0x00 (0000ms, 7391ms total)
T427C 008:848 JLINK_SetBPEx(Addr = 0x20000000, Type = 0xFFFFFFF2)  returns 0x00000008 (0000ms, 7391ms total)
T427C 008:848 JLINK_Go() -- CPU_WriteMem(4 bytes @ 0xE0002008) -- CPU_WriteMem(4 bytes @ 0xE000200C) -- CPU_WriteMem(4 bytes @ 0xE0002010) -- CPU_WriteMem(4 bytes @ 0xE0002014) -- CPU_WriteMem(4 bytes @ 0xE0002018) -- CPU_WriteMem(4 bytes @ 0xE000201C) (0006ms, 7391ms total)
T427C 008:854 JLINK_IsHalted() -- CPU_ReadMem(2 bytes @ 0x20000000)  returns TRUE (0004ms, 7397ms total)
T427C 008:858 JLINK_ReadReg(R15)  returns 0x20000000 (0000ms, 7397ms total)
T427C 008:858 JLINK_ClrBPEx(BPHandle = 0x00000008)  returns 0x00 (0000ms, 7397ms total)
T427C 008:858 JLINK_ReadReg(R0)  returns 0x00000001 (0000ms, 7397ms total)
T427C 008:858 JLINK_WriteReg(R0, 0x08001800)  returns 0x00 (0000ms, 7397ms total)
T427C 008:858 JLINK_WriteReg(R1, 0x00000800)  returns 0x00 (0000ms, 7397ms total)
T427C 008:858 JLINK_WriteReg(R2, 0x000000FF)  returns 0x00 (0000ms, 7397ms total)
T427C 008:858 JLINK_WriteReg(R3, 0x00000000)  returns 0x00 (0000ms, 7397ms total)
T427C 008:858 JLINK_WriteReg(R4, 0x00000000)  returns 0x00 (0000ms, 7397ms total)
T427C 008:858 JLINK_WriteReg(R5, 0x00000000)  returns 0x00 (0000ms, 7397ms total)
T427C 008:858 JLINK_WriteReg(R6, 0x00000000)  returns 0x00 (0000ms, 7397ms total)
T427C 008:858 JLINK_WriteReg(R7, 0x00000000)  returns 0x00 (0000ms, 7397ms total)
T427C 008:858 JLINK_WriteReg(R8, 0x00000000)  returns 0x00 (0000ms, 7397ms total)
T427C 008:858 JLINK_WriteReg(R9, 0x20000160)  returns 0x00 (0000ms, 7397ms total)
T427C 008:858 JLINK_WriteReg(R10, 0x00000000)  returns 0x00 (0000ms, 7397ms total)
T427C 008:858 JLINK_WriteReg(R11, 0x00000000)  returns 0x00 (0000ms, 7397ms total)
T427C 008:858 JLINK_WriteReg(R12, 0x00000000)  returns 0x00 (0000ms, 7397ms total)
T427C 008:858 JLINK_WriteReg(R13, 0x20001000)  returns 0x00 (0000ms, 7397ms total)
T427C 008:858 JLINK_WriteReg(R14, 0x20000001)  returns 0x00 (0000ms, 7397ms total)
T427C 008:858 JLINK_WriteReg(R15, 0x200000B6)  returns 0x00 (0000ms, 7397ms total)
T427C 008:858 JLINK_WriteReg(XPSR, 0x01000000)  returns 0x00 (0000ms, 7397ms total)
T427C 008:858 JLINK_WriteReg(MSP, 0x20001000)  returns 0x00 (0000ms, 7397ms total)
T427C 008:858 JLINK_WriteReg(PSP, 0x20001000)  returns 0x00 (0000ms, 7397ms total)
T427C 008:858 JLINK_WriteReg(CFBP, 0x00000000)  returns 0x00 (0000ms, 7397ms total)
T427C 008:858 JLINK_SetBPEx(Addr = 0x20000000, Type = 0xFFFFFFF2)  returns 0x00000009 (0000ms, 7397ms total)
T427C 008:858 JLINK_Go() -- CPU_WriteMem(4 bytes @ 0xE0002008) -- CPU_WriteMem(4 bytes @ 0xE000200C) -- CPU_WriteMem(4 bytes @ 0xE0002010) -- CPU_WriteMem(4 bytes @ 0xE0002014) -- CPU_WriteMem(4 bytes @ 0xE0002018) -- CPU_WriteMem(4 bytes @ 0xE000201C) (0005ms, 7397ms total)
T427C 008:863 JLINK_IsHalted()  returns FALSE (0001ms, 7402ms total)
T427C 008:866 JLINK_IsHalted()  returns FALSE (0000ms, 7402ms total)
T427C 008:869 JLINK_IsHalted()  returns FALSE (0000ms, 7402ms total)
T427C 008:871 JLINK_IsHalted()  returns FALSE (0000ms, 7402ms total)
T427C 008:873 JLINK_IsHalted()  returns FALSE (0001ms, 7402ms total)
T427C 008:876 JLINK_IsHalted()  returns FALSE (0000ms, 7402ms total)
T427C 008:879 JLINK_IsHalted()  returns FALSE (0000ms, 7402ms total)
T427C 008:881 JLINK_IsHalted()  returns FALSE (0000ms, 7402ms total)
T427C 008:883 JLINK_IsHalted()  returns FALSE (0000ms, 7402ms total)
T427C 008:885 JLINK_IsHalted()  returns FALSE (0000ms, 7402ms total)
T427C 008:887 JLINK_IsHalted() -- CPU_ReadMem(2 bytes @ 0x20000000)  returns TRUE (0004ms, 7402ms total)
T427C 008:891 JLINK_ReadReg(R15)  returns 0x20000000 (0000ms, 7402ms total)
T427C 008:891 JLINK_ClrBPEx(BPHandle = 0x00000009)  returns 0x00 (0000ms, 7402ms total)
T427C 008:891 JLINK_ReadReg(R0)  returns 0x00000000 (0000ms, 7402ms total)
T427C 008:891 JLINK_WriteReg(R0, 0x08002000)  returns 0x00 (0000ms, 7402ms total)
T427C 008:891 JLINK_WriteReg(R1, 0x00000800)  returns 0x00 (0000ms, 7402ms total)
T427C 008:891 JLINK_WriteReg(R2, 0x000000FF)  returns 0x00 (0000ms, 7402ms total)
T427C 008:891 JLINK_WriteReg(R3, 0x00000000)  returns 0x00 (0000ms, 7402ms total)
T427C 008:891 JLINK_WriteReg(R4, 0x00000000)  returns 0x00 (0000ms, 7402ms total)
T427C 008:891 JLINK_WriteReg(R5, 0x00000000)  returns 0x00 (0000ms, 7402ms total)
T427C 008:891 JLINK_WriteReg(R6, 0x00000000)  returns 0x00 (0000ms, 7402ms total)
T427C 008:891 JLINK_WriteReg(R7, 0x00000000)  returns 0x00 (0000ms, 7402ms total)
T427C 008:891 JLINK_WriteReg(R8, 0x00000000)  returns 0x00 (0000ms, 7402ms total)
T427C 008:891 JLINK_WriteReg(R9, 0x20000160)  returns 0x00 (0000ms, 7402ms total)
T427C 008:891 JLINK_WriteReg(R10, 0x00000000)  returns 0x00 (0000ms, 7402ms total)
T427C 008:891 JLINK_WriteReg(R11, 0x00000000)  returns 0x00 (0000ms, 7402ms total)
T427C 008:891 JLINK_WriteReg(R12, 0x00000000)  returns 0x00 (0000ms, 7402ms total)
T427C 008:891 JLINK_WriteReg(R13, 0x20001000)  returns 0x00 (0000ms, 7402ms total)
T427C 008:891 JLINK_WriteReg(R14, 0x20000001)  returns 0x00 (0000ms, 7402ms total)
T427C 008:891 JLINK_WriteReg(R15, 0x20000020)  returns 0x00 (0000ms, 7402ms total)
T427C 008:891 JLINK_WriteReg(XPSR, 0x01000000)  returns 0x00 (0000ms, 7402ms total)
T427C 008:891 JLINK_WriteReg(MSP, 0x20001000)  returns 0x00 (0000ms, 7402ms total)
T427C 008:891 JLINK_WriteReg(PSP, 0x20001000)  returns 0x00 (0000ms, 7402ms total)
T427C 008:891 JLINK_WriteReg(CFBP, 0x00000000)  returns 0x00 (0000ms, 7402ms total)
T427C 008:891 JLINK_SetBPEx(Addr = 0x20000000, Type = 0xFFFFFFF2)  returns 0x0000000A (0000ms, 7402ms total)
T427C 008:891 JLINK_Go() -- CPU_WriteMem(4 bytes @ 0xE0002008) -- CPU_WriteMem(4 bytes @ 0xE000200C) -- CPU_WriteMem(4 bytes @ 0xE0002010) -- CPU_WriteMem(4 bytes @ 0xE0002014) -- CPU_WriteMem(4 bytes @ 0xE0002018) -- CPU_WriteMem(4 bytes @ 0xE000201C) (0006ms, 7402ms total)
T427C 008:897 JLINK_IsHalted() -- CPU_ReadMem(2 bytes @ 0x20000000)  returns TRUE (0004ms, 7408ms total)
T427C 008:901 JLINK_ReadReg(R15)  returns 0x20000000 (0000ms, 7408ms total)
T427C 008:901 JLINK_ClrBPEx(BPHandle = 0x0000000A)  returns 0x00 (0000ms, 7408ms total)
T427C 008:901 JLINK_ReadReg(R0)  returns 0x00000001 (0000ms, 7408ms total)
T427C 008:901 JLINK_WriteReg(R0, 0x08002000)  returns 0x00 (0000ms, 7408ms total)
T427C 008:901 JLINK_WriteReg(R1, 0x00000800)  returns 0x00 (0000ms, 7408ms total)
T427C 008:901 JLINK_WriteReg(R2, 0x000000FF)  returns 0x00 (0000ms, 7408ms total)
T427C 008:901 JLINK_WriteReg(R3, 0x00000000)  returns 0x00 (0000ms, 7408ms total)
T427C 008:901 JLINK_WriteReg(R4, 0x00000000)  returns 0x00 (0000ms, 7408ms total)
T427C 008:901 JLINK_WriteReg(R5, 0x00000000)  returns 0x00 (0000ms, 7408ms total)
T427C 008:901 JLINK_WriteReg(R6, 0x00000000)  returns 0x00 (0000ms, 7408ms total)
T427C 008:901 JLINK_WriteReg(R7, 0x00000000)  returns 0x00 (0000ms, 7408ms total)
T427C 008:901 JLINK_WriteReg(R8, 0x00000000)  returns 0x00 (0000ms, 7408ms total)
T427C 008:901 JLINK_WriteReg(R9, 0x20000160)  returns 0x00 (0000ms, 7408ms total)
T427C 008:901 JLINK_WriteReg(R10, 0x00000000)  returns 0x00 (0000ms, 7408ms total)
T427C 008:901 JLINK_WriteReg(R11, 0x00000000)  returns 0x00 (0000ms, 7408ms total)
T427C 008:901 JLINK_WriteReg(R12, 0x00000000)  returns 0x00 (0000ms, 7408ms total)
T427C 008:901 JLINK_WriteReg(R13, 0x20001000)  returns 0x00 (0000ms, 7408ms total)
T427C 008:901 JLINK_WriteReg(R14, 0x20000001)  returns 0x00 (0000ms, 7408ms total)
T427C 008:901 JLINK_WriteReg(R15, 0x200000B6)  returns 0x00 (0000ms, 7408ms total)
T427C 008:901 JLINK_WriteReg(XPSR, 0x01000000)  returns 0x00 (0000ms, 7408ms total)
T427C 008:901 JLINK_WriteReg(MSP, 0x20001000)  returns 0x00 (0000ms, 7408ms total)
T427C 008:901 JLINK_WriteReg(PSP, 0x20001000)  returns 0x00 (0000ms, 7408ms total)
T427C 008:901 JLINK_WriteReg(CFBP, 0x00000000)  returns 0x00 (0000ms, 7408ms total)
T427C 008:901 JLINK_SetBPEx(Addr = 0x20000000, Type = 0xFFFFFFF2)  returns 0x0000000B (0000ms, 7408ms total)
T427C 008:901 JLINK_Go() -- CPU_WriteMem(4 bytes @ 0xE0002008) -- CPU_WriteMem(4 bytes @ 0xE000200C) -- CPU_WriteMem(4 bytes @ 0xE0002010) -- CPU_WriteMem(4 bytes @ 0xE0002014) -- CPU_WriteMem(4 bytes @ 0xE0002018) -- CPU_WriteMem(4 bytes @ 0xE000201C) (0005ms, 7408ms total)
T427C 008:906 JLINK_IsHalted()  returns FALSE (0001ms, 7413ms total)
T427C 008:909 JLINK_IsHalted()  returns FALSE (0000ms, 7413ms total)
T427C 008:911 JLINK_IsHalted()  returns FALSE (0000ms, 7413ms total)
T427C 008:914 JLINK_IsHalted()  returns FALSE (0000ms, 7413ms total)
T427C 008:916 JLINK_IsHalted()  returns FALSE (0001ms, 7413ms total)
T427C 008:919 JLINK_IsHalted()  returns FALSE (0000ms, 7413ms total)
T427C 008:921 JLINK_IsHalted()  returns FALSE (0000ms, 7413ms total)
T427C 008:923 JLINK_IsHalted()  returns FALSE (0001ms, 7413ms total)
T427C 008:926 JLINK_IsHalted()  returns FALSE (0000ms, 7413ms total)
T427C 008:928 JLINK_IsHalted() -- CPU_ReadMem(2 bytes @ 0x20000000)  returns TRUE (0004ms, 7413ms total)
T427C 008:932 JLINK_ReadReg(R15)  returns 0x20000000 (0000ms, 7413ms total)
T427C 008:932 JLINK_ClrBPEx(BPHandle = 0x0000000B)  returns 0x00 (0000ms, 7413ms total)
T427C 008:932 JLINK_ReadReg(R0)  returns 0x00000000 (0000ms, 7413ms total)
T427C 008:933 JLINK_WriteReg(R0, 0x08002800)  returns 0x00 (0000ms, 7413ms total)
T427C 008:933 JLINK_WriteReg(R1, 0x00000800)  returns 0x00 (0000ms, 7413ms total)
T427C 008:933 JLINK_WriteReg(R2, 0x000000FF)  returns 0x00 (0000ms, 7413ms total)
T427C 008:933 JLINK_WriteReg(R3, 0x00000000)  returns 0x00 (0000ms, 7413ms total)
T427C 008:933 JLINK_WriteReg(R4, 0x00000000)  returns 0x00 (0000ms, 7413ms total)
T427C 008:933 JLINK_WriteReg(R5, 0x00000000)  returns 0x00 (0000ms, 7413ms total)
T427C 008:933 JLINK_WriteReg(R6, 0x00000000)  returns 0x00 (0000ms, 7413ms total)
T427C 008:933 JLINK_WriteReg(R7, 0x00000000)  returns 0x00 (0000ms, 7413ms total)
T427C 008:933 JLINK_WriteReg(R8, 0x00000000)  returns 0x00 (0000ms, 7413ms total)
T427C 008:933 JLINK_WriteReg(R9, 0x20000160)  returns 0x00 (0000ms, 7413ms total)
T427C 008:933 JLINK_WriteReg(R10, 0x00000000)  returns 0x00 (0000ms, 7413ms total)
T427C 008:933 JLINK_WriteReg(R11, 0x00000000)  returns 0x00 (0000ms, 7413ms total)
T427C 008:933 JLINK_WriteReg(R12, 0x00000000)  returns 0x00 (0000ms, 7413ms total)
T427C 008:933 JLINK_WriteReg(R13, 0x20001000)  returns 0x00 (0000ms, 7413ms total)
T427C 008:933 JLINK_WriteReg(R14, 0x20000001)  returns 0x00 (0000ms, 7413ms total)
T427C 008:933 JLINK_WriteReg(R15, 0x20000020)  returns 0x00 (0000ms, 7413ms total)
T427C 008:933 JLINK_WriteReg(XPSR, 0x01000000)  returns 0x00 (0000ms, 7413ms total)
T427C 008:933 JLINK_WriteReg(MSP, 0x20001000)  returns 0x00 (0000ms, 7413ms total)
T427C 008:933 JLINK_WriteReg(PSP, 0x20001000)  returns 0x00 (0000ms, 7413ms total)
T427C 008:933 JLINK_WriteReg(CFBP, 0x00000000)  returns 0x00 (0000ms, 7413ms total)
T427C 008:933 JLINK_SetBPEx(Addr = 0x20000000, Type = 0xFFFFFFF2)  returns 0x0000000C (0000ms, 7413ms total)
T427C 008:933 JLINK_Go() -- CPU_WriteMem(4 bytes @ 0xE0002008) -- CPU_WriteMem(4 bytes @ 0xE000200C) -- CPU_WriteMem(4 bytes @ 0xE0002010) -- CPU_WriteMem(4 bytes @ 0xE0002014) -- CPU_WriteMem(4 bytes @ 0xE0002018) -- CPU_WriteMem(4 bytes @ 0xE000201C) (0004ms, 7413ms total)
T427C 008:937 JLINK_IsHalted() -- CPU_ReadMem(2 bytes @ 0x20000000)  returns TRUE (0005ms, 7417ms total)
T427C 008:942 JLINK_ReadReg(R15)  returns 0x20000000 (0000ms, 7417ms total)
T427C 008:942 JLINK_ClrBPEx(BPHandle = 0x0000000C)  returns 0x00 (0000ms, 7417ms total)
T427C 008:942 JLINK_ReadReg(R0)  returns 0x00000001 (0000ms, 7417ms total)
T427C 008:942 JLINK_WriteReg(R0, 0x08002800)  returns 0x00 (0000ms, 7417ms total)
T427C 008:942 JLINK_WriteReg(R1, 0x00000800)  returns 0x00 (0000ms, 7417ms total)
T427C 008:942 JLINK_WriteReg(R2, 0x000000FF)  returns 0x00 (0000ms, 7417ms total)
T427C 008:942 JLINK_WriteReg(R3, 0x00000000)  returns 0x00 (0000ms, 7417ms total)
T427C 008:942 JLINK_WriteReg(R4, 0x00000000)  returns 0x00 (0000ms, 7417ms total)
T427C 008:942 JLINK_WriteReg(R5, 0x00000000)  returns 0x00 (0000ms, 7417ms total)
T427C 008:942 JLINK_WriteReg(R6, 0x00000000)  returns 0x00 (0000ms, 7417ms total)
T427C 008:942 JLINK_WriteReg(R7, 0x00000000)  returns 0x00 (0000ms, 7417ms total)
T427C 008:942 JLINK_WriteReg(R8, 0x00000000)  returns 0x00 (0000ms, 7417ms total)
T427C 008:942 JLINK_WriteReg(R9, 0x20000160)  returns 0x00 (0000ms, 7417ms total)
T427C 008:942 JLINK_WriteReg(R10, 0x00000000)  returns 0x00 (0000ms, 7417ms total)
T427C 008:942 JLINK_WriteReg(R11, 0x00000000)  returns 0x00 (0000ms, 7417ms total)
T427C 008:942 JLINK_WriteReg(R12, 0x00000000)  returns 0x00 (0000ms, 7417ms total)
T427C 008:942 JLINK_WriteReg(R13, 0x20001000)  returns 0x00 (0000ms, 7417ms total)
T427C 008:942 JLINK_WriteReg(R14, 0x20000001)  returns 0x00 (0000ms, 7417ms total)
T427C 008:942 JLINK_WriteReg(R15, 0x200000B6)  returns 0x00 (0000ms, 7417ms total)
T427C 008:942 JLINK_WriteReg(XPSR, 0x01000000)  returns 0x00 (0000ms, 7417ms total)
T427C 008:942 JLINK_WriteReg(MSP, 0x20001000)  returns 0x00 (0000ms, 7417ms total)
T427C 008:942 JLINK_WriteReg(PSP, 0x20001000)  returns 0x00 (0000ms, 7417ms total)
T427C 008:942 JLINK_WriteReg(CFBP, 0x00000000)  returns 0x00 (0000ms, 7417ms total)
T427C 008:942 JLINK_SetBPEx(Addr = 0x20000000, Type = 0xFFFFFFF2)  returns 0x0000000D (0000ms, 7417ms total)
T427C 008:942 JLINK_Go() -- CPU_WriteMem(4 bytes @ 0xE0002008) -- CPU_WriteMem(4 bytes @ 0xE000200C) -- CPU_WriteMem(4 bytes @ 0xE0002010) -- CPU_WriteMem(4 bytes @ 0xE0002014) -- CPU_WriteMem(4 bytes @ 0xE0002018) -- CPU_WriteMem(4 bytes @ 0xE000201C) (0005ms, 7417ms total)
T427C 008:947 JLINK_IsHalted()  returns FALSE (0001ms, 7422ms total)
T427C 008:950 JLINK_IsHalted()  returns FALSE (0000ms, 7422ms total)
T427C 008:952 JLINK_IsHalted()  returns FALSE (0000ms, 7422ms total)
T427C 008:954 JLINK_IsHalted()  returns FALSE (0001ms, 7422ms total)
T427C 008:957 JLINK_IsHalted()  returns FALSE (0001ms, 7422ms total)
T427C 008:960 JLINK_IsHalted()  returns FALSE (0000ms, 7422ms total)
T427C 008:962 JLINK_IsHalted()  returns FALSE (0000ms, 7422ms total)
T427C 008:964 JLINK_IsHalted()  returns FALSE (0001ms, 7422ms total)
T427C 008:967 JLINK_IsHalted()  returns FALSE (0000ms, 7422ms total)
T427C 008:969 JLINK_IsHalted() -- CPU_ReadMem(2 bytes @ 0x20000000)  returns TRUE (0004ms, 7422ms total)
T427C 008:973 JLINK_ReadReg(R15)  returns 0x20000000 (0000ms, 7422ms total)
T427C 008:973 JLINK_ClrBPEx(BPHandle = 0x0000000D)  returns 0x00 (0000ms, 7422ms total)
T427C 008:973 JLINK_ReadReg(R0)  returns 0x00000000 (0000ms, 7422ms total)
T427C 008:973 JLINK_WriteReg(R0, 0x00000001)  returns 0x00 (0000ms, 7422ms total)
T427C 008:973 JLINK_WriteReg(R1, 0x00000800)  returns 0x00 (0000ms, 7422ms total)
T427C 008:973 JLINK_WriteReg(R2, 0x000000FF)  returns 0x00 (0000ms, 7422ms total)
T427C 008:973 JLINK_WriteReg(R3, 0x00000000)  returns 0x00 (0000ms, 7422ms total)
T427C 008:973 JLINK_WriteReg(R4, 0x00000000)  returns 0x00 (0000ms, 7422ms total)
T427C 008:973 JLINK_WriteReg(R5, 0x00000000)  returns 0x00 (0000ms, 7422ms total)
T427C 008:973 JLINK_WriteReg(R6, 0x00000000)  returns 0x00 (0000ms, 7422ms total)
T427C 008:973 JLINK_WriteReg(R7, 0x00000000)  returns 0x00 (0000ms, 7422ms total)
T427C 008:973 JLINK_WriteReg(R8, 0x00000000)  returns 0x00 (0000ms, 7422ms total)
T427C 008:973 JLINK_WriteReg(R9, 0x20000160)  returns 0x00 (0000ms, 7422ms total)
T427C 008:973 JLINK_WriteReg(R10, 0x00000000)  returns 0x00 (0000ms, 7422ms total)
T427C 008:973 JLINK_WriteReg(R11, 0x00000000)  returns 0x00 (0000ms, 7422ms total)
T427C 008:973 JLINK_WriteReg(R12, 0x00000000)  returns 0x00 (0000ms, 7422ms total)
T427C 008:973 JLINK_WriteReg(R13, 0x20001000)  returns 0x00 (0000ms, 7422ms total)
T427C 008:973 JLINK_WriteReg(R14, 0x20000001)  returns 0x00 (0000ms, 7422ms total)
T427C 008:973 JLINK_WriteReg(R15, 0x2000006A)  returns 0x00 (0000ms, 7422ms total)
T427C 008:973 JLINK_WriteReg(XPSR, 0x01000000)  returns 0x00 (0000ms, 7422ms total)
T427C 008:973 JLINK_WriteReg(MSP, 0x20001000)  returns 0x00 (0000ms, 7422ms total)
T427C 008:973 JLINK_WriteReg(PSP, 0x20001000)  returns 0x00 (0000ms, 7422ms total)
T427C 008:973 JLINK_WriteReg(CFBP, 0x00000000)  returns 0x00 (0000ms, 7422ms total)
T427C 008:973 JLINK_SetBPEx(Addr = 0x20000000, Type = 0xFFFFFFF2)  returns 0x0000000E (0000ms, 7422ms total)
T427C 008:973 JLINK_Go() -- CPU_WriteMem(4 bytes @ 0xE0002008) -- CPU_WriteMem(4 bytes @ 0xE000200C) -- CPU_WriteMem(4 bytes @ 0xE0002010) -- CPU_WriteMem(4 bytes @ 0xE0002014) -- CPU_WriteMem(4 bytes @ 0xE0002018) -- CPU_WriteMem(4 bytes @ 0xE000201C) (0005ms, 7422ms total)
T427C 008:978 JLINK_IsHalted() -- CPU_ReadMem(2 bytes @ 0x20000000)  returns TRUE (0004ms, 7427ms total)
T427C 008:982 JLINK_ReadReg(R15)  returns 0x20000000 (0000ms, 7427ms total)
T427C 008:982 JLINK_ClrBPEx(BPHandle = 0x0000000E)  returns 0x00 (0000ms, 7427ms total)
T427C 008:982 JLINK_ReadReg(R0)  returns 0x00000000 (0000ms, 7427ms total)
T427C 009:038 JLINK_WriteMem(0x20000000, 0x0164 Bytes, ...) -- Data:  00 BE 0A E0 0D 78 2D 06 68 40 08 24 40 00 00 D3 ... -- CPU_WriteMem(356 bytes @ 0x20000000)  returns 0x164 (0003ms, 7427ms total)
T427C 009:041 JLINK_WriteReg(R0, 0x08000000)  returns 0x00 (0000ms, 7430ms total)
T427C 009:041 JLINK_WriteReg(R1, 0x044AA200)  returns 0x00 (0000ms, 7430ms total)
T427C 009:041 JLINK_WriteReg(R2, 0x00000002)  returns 0x00 (0000ms, 7430ms total)
T427C 009:041 JLINK_WriteReg(R3, 0x00000000)  returns 0x00 (0000ms, 7430ms total)
T427C 009:041 JLINK_WriteReg(R4, 0x00000000)  returns 0x00 (0000ms, 7430ms total)
T427C 009:041 JLINK_WriteReg(R5, 0x00000000)  returns 0x00 (0000ms, 7430ms total)
T427C 009:041 JLINK_WriteReg(R6, 0x00000000)  returns 0x00 (0000ms, 7430ms total)
T427C 009:041 JLINK_WriteReg(R7, 0x00000000)  returns 0x00 (0000ms, 7430ms total)
T427C 009:041 JLINK_WriteReg(R8, 0x00000000)  returns 0x00 (0000ms, 7430ms total)
T427C 009:041 JLINK_WriteReg(R9, 0x20000160)  returns 0x00 (0000ms, 7430ms total)
T427C 009:041 JLINK_WriteReg(R10, 0x00000000)  returns 0x00 (0000ms, 7430ms total)
T427C 009:041 JLINK_WriteReg(R11, 0x00000000)  returns 0x00 (0000ms, 7430ms total)
T427C 009:041 JLINK_WriteReg(R12, 0x00000000)  returns 0x00 (0000ms, 7430ms total)
T427C 009:041 JLINK_WriteReg(R13, 0x20001000)  returns 0x00 (0000ms, 7430ms total)
T427C 009:041 JLINK_WriteReg(R14, 0x20000001)  returns 0x00 (0000ms, 7430ms total)
T427C 009:041 JLINK_WriteReg(R15, 0x20000038)  returns 0x00 (0000ms, 7430ms total)
T427C 009:041 JLINK_WriteReg(XPSR, 0x01000000)  returns 0x00 (0000ms, 7430ms total)
T427C 009:041 JLINK_WriteReg(MSP, 0x20001000)  returns 0x00 (0000ms, 7430ms total)
T427C 009:041 JLINK_WriteReg(PSP, 0x20001000)  returns 0x00 (0000ms, 7430ms total)
T427C 009:041 JLINK_WriteReg(CFBP, 0x00000000)  returns 0x00 (0000ms, 7430ms total)
T427C 009:041 JLINK_SetBPEx(Addr = 0x20000000, Type = 0xFFFFFFF2) -- CPU_ReadMem(2 bytes @ 0x20000000)  returns 0x0000000F (0000ms, 7430ms total)
T427C 009:041 JLINK_Go() -- CPU_WriteMem(2 bytes @ 0x20000000) -- CPU_WriteMem(4 bytes @ 0xE0002008) -- CPU_WriteMem(4 bytes @ 0xE000200C) -- CPU_WriteMem(4 bytes @ 0xE0002010) -- CPU_WriteMem(4 bytes @ 0xE0002014) -- CPU_WriteMem(4 bytes @ 0xE0002018) -- CPU_WriteMem(4 bytes @ 0xE000201C) (0006ms, 7430ms total)
T427C 009:047 JLINK_IsHalted() -- CPU_ReadMem(2 bytes @ 0x20000000)  returns TRUE (0004ms, 7436ms total)
T427C 009:051 JLINK_ReadReg(R15)  returns 0x20000000 (0000ms, 7436ms total)
T427C 009:051 JLINK_ClrBPEx(BPHandle = 0x0000000F)  returns 0x00 (0000ms, 7436ms total)
T427C 009:051 JLINK_ReadReg(R0)  returns 0x00000000 (0000ms, 7436ms total)
T427C 009:051 JLINK_WriteMem(0x20000164, 0x029C Bytes, ...) -- Data:  C0 05 00 20 45 01 00 08 5D 20 00 08 C3 19 00 08 ... -- CPU_WriteMem(668 bytes @ 0x20000164)  returns 0x29C (0005ms, 7436ms total)
T427C 009:056 JLINK_WriteMem(0x20000400, 0x0164 Bytes, ...) -- Data:  81 F8 21 00 00 BF 00 20 81 F8 20 00 00 BF 10 46 ... -- CPU_WriteMem(356 bytes @ 0x20000400)  returns 0x164 (0003ms, 7441ms total)
T427C 009:059 JLINK_WriteReg(R0, 0x08000000)  returns 0x00 (0000ms, 7444ms total)
T427C 009:059 JLINK_WriteReg(R1, 0x00000400)  returns 0x00 (0000ms, 7444ms total)
T427C 009:059 JLINK_WriteReg(R2, 0x20000164)  returns 0x00 (0000ms, 7444ms total)
T427C 009:059 JLINK_WriteReg(R3, 0x00000000)  returns 0x00 (0000ms, 7444ms total)
T427C 009:059 JLINK_WriteReg(R4, 0x00000000)  returns 0x00 (0000ms, 7444ms total)
T427C 009:059 JLINK_WriteReg(R5, 0x00000000)  returns 0x00 (0000ms, 7444ms total)
T427C 009:059 JLINK_WriteReg(R6, 0x00000000)  returns 0x00 (0000ms, 7444ms total)
T427C 009:059 JLINK_WriteReg(R7, 0x00000000)  returns 0x00 (0000ms, 7444ms total)
T427C 009:059 JLINK_WriteReg(R8, 0x00000000)  returns 0x00 (0000ms, 7444ms total)
T427C 009:059 JLINK_WriteReg(R9, 0x20000160)  returns 0x00 (0000ms, 7444ms total)
T427C 009:059 JLINK_WriteReg(R10, 0x00000000)  returns 0x00 (0000ms, 7444ms total)
T427C 009:059 JLINK_WriteReg(R11, 0x00000000)  returns 0x00 (0000ms, 7444ms total)
T427C 009:059 JLINK_WriteReg(R12, 0x00000000)  returns 0x00 (0000ms, 7444ms total)
T427C 009:059 JLINK_WriteReg(R13, 0x20001000)  returns 0x00 (0000ms, 7444ms total)
T427C 009:059 JLINK_WriteReg(R14, 0x20000001)  returns 0x00 (0000ms, 7444ms total)
T427C 009:059 JLINK_WriteReg(R15, 0x200000F4)  returns 0x00 (0000ms, 7444ms total)
T427C 009:059 JLINK_WriteReg(XPSR, 0x01000000)  returns 0x00 (0000ms, 7444ms total)
T427C 009:059 JLINK_WriteReg(MSP, 0x20001000)  returns 0x00 (0000ms, 7444ms total)
T427C 009:059 JLINK_WriteReg(PSP, 0x20001000)  returns 0x00 (0000ms, 7444ms total)
T427C 009:059 JLINK_WriteReg(CFBP, 0x00000000)  returns 0x00 (0000ms, 7444ms total)
T427C 009:059 JLINK_SetBPEx(Addr = 0x20000000, Type = 0xFFFFFFF2)  returns 0x00000010 (0000ms, 7444ms total)
T427C 009:059 JLINK_Go() -- CPU_WriteMem(4 bytes @ 0xE0002008) -- CPU_WriteMem(4 bytes @ 0xE000200C) -- CPU_WriteMem(4 bytes @ 0xE0002010) -- CPU_WriteMem(4 bytes @ 0xE0002014) -- CPU_WriteMem(4 bytes @ 0xE0002018) -- CPU_WriteMem(4 bytes @ 0xE000201C) (0005ms, 7444ms total)
T427C 009:064 JLINK_IsHalted()  returns FALSE (0001ms, 7449ms total)
T427C 009:068 JLINK_IsHalted()  returns FALSE (0000ms, 7449ms total)
T427C 009:070 JLINK_IsHalted()  returns FALSE (0000ms, 7449ms total)
T427C 009:072 JLINK_IsHalted()  returns FALSE (0000ms, 7449ms total)
T427C 009:074 JLINK_IsHalted()  returns FALSE (0001ms, 7449ms total)
T427C 009:077 JLINK_IsHalted()  returns FALSE (0000ms, 7449ms total)
T427C 009:079 JLINK_IsHalted()  returns FALSE (0000ms, 7449ms total)
T427C 009:081 JLINK_IsHalted()  returns FALSE (0000ms, 7449ms total)
T427C 009:083 JLINK_IsHalted()  returns FALSE (0001ms, 7449ms total)
